Circuit: * D:\TrabInstrumentacao\CIRCUITOS\Draft1.asc

Warning: Multiple definitions of model "2scr375p" Type: BJT
Warning: Multiple definitions of model "bc857b" Type: BJT
Warning: Multiple definitions of model "bc847c" Type: BJT
Warning: Multiple definitions of model "bc847b" Type: BJT
Error on line 11 : v5 0 n001 v
	 Unknown parameter "v"
WARNING: Less than two connections to node V1.  This node is used by Q1.
WARNING: Less than two connections to node NC_01.  This node is used by V1.
V5: Missing value, assumed 0V @ DC
Direct Newton iteration for .op point succeeded.
Semiconductor Device Operating Points:
                        --- Bipolar Transistors ---
Name:       q8          q7          q10         q9          q6
Model:      pnp         pnp         npn         npn         npn
Ib:      -1.16e+12    5.00e-12    1.18e+12   -5.00e-12    4.26e-07
Ic:       1.16e+12    1.10e-16    1.16e+12    5.00e-12    4.26e-05
Vbe:     -2.68e+00    5.00e+00    5.00e+00    0.00e+00    6.93e-01
Vbc:     -2.69e+00   -1.00e-05    2.69e+00   -5.00e+00    0.00e+00
Vce:      1.14e-02    5.00e+00    2.31e+00    5.00e+00    6.93e-01
BetaDC:  -1.00e+00    2.20e-05    9.80e-01   -1.00e+00    1.00e+02
Gm:       0.00e+00   -3.87e-15    0.00e+00    3.87e-15    1.65e-03
Rpi:      1.00e-10    1.00e+12    1.00e-10    1.00e+12    6.06e+04
Rx:       0.00e+00    0.00e+00    0.00e+00    0.00e+00    0.00e+00
Ro:       1.00e-12    2.59e+14    1.00e-12    2.33e+98    2.59e+14
Cbe:      0.00e+00    0.00e+00    0.00e+00    0.00e+00    0.00e+00
Cbc:      0.00e+00    0.00e+00    0.00e+00    0.00e+00    0.00e+00
Cjs:      0.00e+00    0.00e+00    0.00e+00    0.00e+00    0.00e+00
BetaAC:   0.00e+00   -3.87e-03    0.00e+00    3.87e-03    1.00e+02
Cbx:      0.00e+00    0.00e+00    0.00e+00    0.00e+00    0.00e+00
Ft:       0.00e+00    0.00e+00    0.00e+00    0.00e+00    0.00e+00

Name:       q5          q4          q3          q2          q1
Model:      npn         npn         npn         npn         npn
Ib:      -5.00e-12    3.37e-33    3.37e-33    3.37e-33   -2.18e-33
Ic:       5.00e-12   -3.37e-33   -3.37e-33   -0.00e+00    2.77e-33
Vbe:     -1.00e-10    0.00e+00    0.00e+00    3.37e-21    5.98e-22
Vbc:     -5.00e+00    3.37e-21    3.37e-21    0.00e+00   -2.77e-21
Vce:      5.00e+00   -3.37e-21   -3.37e-21    3.37e-21    3.37e-21
BetaDC:  -1.00e+00   -1.00e+00   -1.00e+00   -0.00e+00   -1.27e+00
Gm:       3.87e-15    0.00e+00    0.00e+00    0.00e+00    0.00e+00
Rpi:      1.00e+12    1.00e+12    1.00e+12    1.00e+12    1.00e+12
Rx:       0.00e+00    0.00e+00    0.00e+00    0.00e+00    0.00e+00
Ro:       2.33e+98    2.59e+14    2.59e+14    2.59e+14    2.59e+14
Cbe:      0.00e+00    0.00e+00    0.00e+00    0.00e+00    0.00e+00
Cbc:      0.00e+00    0.00e+00    0.00e+00    0.00e+00    0.00e+00
Cjs:      0.00e+00    0.00e+00    0.00e+00    0.00e+00    0.00e+00
BetaAC:   3.87e-03    0.00e+00    0.00e+00    0.00e+00    0.00e+00
Cbx:      0.00e+00    0.00e+00    0.00e+00    0.00e+00    0.00e+00
Ft:       0.00e+00    0.00e+00    0.00e+00    0.00e+00    0.00e+00



Date: Fri Jun 16 09:25:07 2023
Total elapsed time: 0.040 seconds.

tnom = 27
temp = 27
method = trap
totiter = 36
traniter = 0
tranpoints = 0
accept = 0
rejected = 0
matrix size = 35
fillins = 0
solver = Normal
Matrix Compiler1: 1.24 KB object code size
Matrix Compiler2:     198 opcodes
